
T0F0C 000:771 SEGGER J-Link V4.15n (beta) Log File (0001ms, 0758ms total)
T0F0C 000:771 DLL Compiled: Jun 18 2010 19:55:09 (0001ms, 0758ms total)
T0F0C 000:771 Logging started @ 2015-09-29 22:16 (0001ms, 0758ms total)
T0F0C 000:772 JLINK_SetWarnOutHandler(...) (0000ms, 0759ms total)
T0F0C 000:772 JLINK_OpenEx(...)
Firmware: J-Link ARM V8 compiled May 20 2010 17:07:46
Hardware: V8.00
S/N: 17935099
Feature(s): RDI,FlashDL,FlashBP,JFlash  returns O.K. (0080ms, 0759ms total)
T0F0C 000:852 JLINK_SetErrorOutHandler(...) (0000ms, 0839ms total)
T0F0C 000:863 JLINK_ExecCommand("ProjectFile = "C:\Projects\printer\Printer\mdk\JLinkSettings.ini"", ...)  returns 0x00 (0000ms, 0839ms total)
T0F0C 000:907 JLINK_ExecCommand("DisableConnectionTimeout", ...)  returns 0x00 (0000ms, 0839ms total)
T0F0C 000:913 JLINK_TIF_Select(JLINKARM_TIF_SWD)  returns 0x00 (0006ms, 0839ms total)
T0F0C 000:919 JLINK_SetSpeed(2000) (0004ms, 0845ms total)
T0F0C 000:923 JLINK_GetHardwareVersion()  returns 0x13880 (0000ms, 0849ms total)
T0F0C 000:923 JLINK_GetDLLVersion()  returns 41514 (0000ms, 0849ms total)
T0F0C 000:923 JLINK_GetFirmwareString(...) (0000ms, 0849ms total)
T0F0C 000:924 JLINK_GetDLLVersion()  returns 41514 (0000ms, 0849ms total)
T0F0C 000:924 JLINK_GetCompileDateTime() (0000ms, 0849ms total)
T0F0C 000:924 JLINK_GetFirmwareString(...) (0000ms, 0849ms total)
T0F0C 000:924 JLINK_GetHardwareVersion()  returns 0x13880 (0000ms, 0849ms total)
T0F0C 000:925 JLINK_Reset() >0x108 TIF>Found SWD-DP with ID 0x1BA01477 >0x33 TIF> >0x33 TIF> >0x35 TIF> >0x33 TIF> >0x35 TIF> >0x33 TIF> >0x33 TIF> >0x9B TIF> >0x9B TIF> >0x1D7 TIF> >0x13A TIF> >0x13A TIF>TPIU fitted. >0x13A TIF> >0x13A TIF>  FPUnit: 6 code (BP) slots and 2 literal slots >0x13A TIF> >0x13A TIF> (0110ms, 0849ms total)
T0F0C 001:037 JLINK_JTAG_StoreRaw(..., 0x108 Bits)  returns 0x00 (0000ms, 0959ms total)
T0F0C 001:037 JLINK_JTAG_GetU32(BitPos = 227) >0x108 TIF>  returns 0x1BA01477 (0004ms, 0959ms total)
T0F0C 001:041 JLINK_GetDebugInfo(0x100) -- Value=0xE00FF003  returns 0x00 (0003ms, 0963ms total)
T0F0C 001:045 JLINK_ReadMem (0xE00FF000, 0x0018 Bytes, ...) -- CPU_ReadMem(24 bytes @ 0xE00FF000) -- Data:  03 F0 F0 FF 03 20 F0 FF 03 30 F0 FF 03 10 F0 FF ...  returns 0x00 (0002ms, 0966ms total)
T0F0C 001:047 JLINK_ReadMemU32(0xE000ED00, 0x0001 Items, ...) -- CPU_ReadMem(4 bytes @ 0xE000ED00) -- Data:  31 C2 1F 41  returns 0x01 (0002ms, 0968ms total)
T0F0C 001:049 JLINK_Halt()  returns 0x00 (0000ms, 0970ms total)
T0F0C 001:049 JLINK_IsHalted()  returns TRUE (0000ms, 0970ms total)
T0F0C 001:049 JLINK_ReadMemU32(0xE000EDF0, 0x0001 Items, ...) -- CPU_ReadMem(4 bytes @ 0xE000EDF0) -- Data:  03 00 03 00  returns 0x01 (0002ms, 0970ms total)
T0F0C 001:051 JLINK_WriteU32(0xE000EDF0, 0xA05F0003) -- CPU_WriteMem(4 bytes @ 0xE000EDF0)  returns 0x00 (0003ms, 0972ms total)
T0F0C 001:054 JLINK_WriteU32(0xE000EDFC, 0x01000000) -- CPU_WriteMem(4 bytes @ 0xE000EDFC)  returns 0x00 (0002ms, 0975ms total)
T0F0C 001:056 JLINK_ReadMemU32(0xE0002000, 0x0001 Items, ...) -- CPU_ReadMem(4 bytes @ 0xE0002000) -- Data:  60 02 00 00  returns 0x01 (0002ms, 0977ms total)
T0F0C 001:058 JLINK_ReadMemU32(0xE0001000, 0x0001 Items, ...) -- CPU_ReadMem(4 bytes @ 0xE0001000) -- Data:  01 00 00 40  returns 0x01 (0002ms, 0979ms total)
T0F0C 001:061 JLINK_ExecCommand("Device = STM32F103CB", ...)
                JLINK_ExecCommand("map ram 0x20000000 - 0x20004FFF", ...)  returns 0x00 (0000ms, 0000ms total)
                JLINK_AddMirrorAreaEx(Addr = 0x00000000, Size = 0x00000000) (0000ms, 0000ms total)
                returns 0x00 (0000ms, 0981ms total)
T0F0C 001:061 JLINK_GetHWStatus(...)  returns 0x00 (0002ms, 0981ms total)
T0F0C 001:064 JLINK_GetNumBPUnits(Type = 0xFFFFFF00) >0x108 TIF>Found SWD-DP with ID 0x1BA01477 >0x33 TIF> >0x33 TIF> >0x35 TIF> >0x33 TIF> >0x35 TIF> >0x33 TIF> >0x33 TIF> >0x9B TIF> >0x9B TIF> >0x1D7 TIF> >0x13A TIF> >0x13A TIF>TPIU fitted. >0x13A TIF> >0x13A TIF>  FPUnit: 6 code (BP) slots and 2 literal slots >0x13A TIF> >0x13A TIF>  returns 0x06 (0079ms, 0983ms total)
T0F0C 001:143 JLINK_GetNumBPUnits(Type = 0xF0)  returns 0x800 (0000ms, 1062ms total)
T0F0C 001:143 JLINK_GetNumWPUnits()  returns 0x04 (0000ms, 1062ms total)
T0F0C 001:144 JLINK_GetSpeed()  returns 0x7D0 (0000ms, 1062ms total)
T0F0C 001:145 JLINK_ReadMemU32(0xE000E004, 0x0001 Items, ...) -- CPU_ReadMem(4 bytes @ 0xE000E004) -- Data:  01 00 00 00  returns 0x01 (0002ms, 1062ms total)
T0F0C 001:147 JLINK_WriteMem(0xE0001000, 0x001C Bytes, ...) -- Data:  01 00 00 00 00 00 00 00 00 00 00 00 00 00 00 00 ... -- CPU_WriteMem(28 bytes @ 0xE0001000)  returns 0x1C (0002ms, 1064ms total)
T0F0C 001:149 JLINK_ReadMem (0xE0001000, 0x001C Bytes, ...) -- CPU_ReadMem(28 bytes @ 0xE0001000) -- Data:  01 00 00 40 00 00 00 00 00 00 00 00 00 00 00 00 ...  returns 0x00 (0002ms, 1066ms total)
T0F0C 001:151 JLINK_Halt()  returns 0x00 (0000ms, 1068ms total)
T0F0C 001:151 JLINK_IsHalted()  returns TRUE (0000ms, 1068ms total)
T0F0C 001:155 JLINK_WriteMem(0x20000000, 0x0164 Bytes, ...) -- Data:  00 BE 0A E0 0D 78 2D 06 68 40 08 24 40 00 00 D3 ... -- CPU_WriteMem(356 bytes @ 0x20000000)  returns 0x164 (0006ms, 1068ms total)
T0F0C 001:161 JLINK_WriteReg(R0, 0x08004000)  returns 0x00 (0000ms, 1074ms total)
T0F0C 001:161 JLINK_WriteReg(R1, 0x007A1200)  returns 0x00 (0000ms, 1074ms total)
T0F0C 001:161 JLINK_WriteReg(R2, 0x00000001)  returns 0x00 (0000ms, 1074ms total)
T0F0C 001:161 JLINK_WriteReg(R3, 0x00000000)  returns 0x00 (0000ms, 1074ms total)
T0F0C 001:161 JLINK_WriteReg(R4, 0x00000000)  returns 0x00 (0000ms, 1074ms total)
T0F0C 001:161 JLINK_WriteReg(R5, 0x00000000)  returns 0x00 (0000ms, 1074ms total)
T0F0C 001:161 JLINK_WriteReg(R6, 0x00000000)  returns 0x00 (0000ms, 1074ms total)
T0F0C 001:161 JLINK_WriteReg(R7, 0x00000000)  returns 0x00 (0000ms, 1074ms total)
T0F0C 001:161 JLINK_WriteReg(R8, 0x00000000)  returns 0x00 (0000ms, 1074ms total)
T0F0C 001:161 JLINK_WriteReg(R9, 0x20000160)  returns 0x00 (0000ms, 1074ms total)
T0F0C 001:161 JLINK_WriteReg(R10, 0x00000000)  returns 0x00 (0000ms, 1074ms total)
T0F0C 001:161 JLINK_WriteReg(R11, 0x00000000)  returns 0x00 (0000ms, 1074ms total)
T0F0C 001:161 JLINK_WriteReg(R12, 0x00000000)  returns 0x00 (0000ms, 1074ms total)
T0F0C 001:161 JLINK_WriteReg(R13, 0x20000800)  returns 0x00 (0000ms, 1074ms total)
T0F0C 001:161 JLINK_WriteReg(R14, 0x20000001)  returns 0x00 (0000ms, 1074ms total)
T0F0C 001:161 JLINK_WriteReg(R15, 0x20000038)  returns 0x00 (0000ms, 1074ms total)
T0F0C 001:161 JLINK_WriteReg(XPSR, 0x01000000)  returns 0x00 (0000ms, 1074ms total)
T0F0C 001:161 JLINK_WriteReg(MSP, 0x20000800)  returns 0x00 (0000ms, 1074ms total)
T0F0C 001:161 JLINK_WriteReg(PSP, 0x20000800)  returns 0x00 (0000ms, 1074ms total)
T0F0C 001:161 JLINK_WriteReg(CFBP, 0x00000000)  returns 0x00 (0000ms, 1074ms total)
T0F0C 001:161 JLINK_SetBPEx(Addr = 0x20000000, Type = 0xFFFFFFF2) -- CPU_ReadMem(2 bytes @ 0x20000000)  returns 0x00000001 (0004ms, 1074ms total)
T0F0C 001:165 JLINK_Go() -- CPU_WriteMem(2 bytes @ 0x20000000) -- CPU_WriteMem(4 bytes @ 0xE0002008) -- CPU_WriteMem(4 bytes @ 0xE000200C) -- CPU_WriteMem(4 bytes @ 0xE0002010) -- CPU_WriteMem(4 bytes @ 0xE0002014) -- CPU_WriteMem(4 bytes @ 0xE0002018) -- CPU_WriteMem(4 bytes @ 0xE000201C) (0020ms, 1078ms total)
T0F0C 001:185 JLINK_IsHalted() -- CPU_ReadMem(2 bytes @ 0x20000000)  returns TRUE (0012ms, 1098ms total)
T0F0C 001:197 JLINK_ReadReg(R15)  returns 0x20000000 (0000ms, 1098ms total)
T0F0C 001:197 JLINK_ClrBPEx(BPHandle = 0x00000001)  returns 0x00 (0000ms, 1098ms total)
T0F0C 001:197 JLINK_ReadReg(R0)  returns 0x00000000 (0000ms, 1098ms total)
T0F0C 001:197 JLINK_WriteReg(R0, 0x08004000)  returns 0x00 (0000ms, 1098ms total)
T0F0C 001:197 JLINK_WriteReg(R1, 0x00000400)  returns 0x00 (0000ms, 1098ms total)
T0F0C 001:197 JLINK_WriteReg(R2, 0x000000FF)  returns 0x00 (0000ms, 1098ms total)
T0F0C 001:197 JLINK_WriteReg(R3, 0x00000000)  returns 0x00 (0000ms, 1098ms total)
T0F0C 001:197 JLINK_WriteReg(R4, 0x00000000)  returns 0x00 (0000ms, 1098ms total)
T0F0C 001:197 JLINK_WriteReg(R5, 0x00000000)  returns 0x00 (0000ms, 1098ms total)
T0F0C 001:197 JLINK_WriteReg(R6, 0x00000000)  returns 0x00 (0000ms, 1098ms total)
T0F0C 001:197 JLINK_WriteReg(R7, 0x00000000)  returns 0x00 (0000ms, 1098ms total)
T0F0C 001:197 JLINK_WriteReg(R8, 0x00000000)  returns 0x00 (0000ms, 1098ms total)
T0F0C 001:197 JLINK_WriteReg(R9, 0x20000160)  returns 0x00 (0000ms, 1098ms total)
T0F0C 001:197 JLINK_WriteReg(R10, 0x00000000)  returns 0x00 (0000ms, 1098ms total)
T0F0C 001:197 JLINK_WriteReg(R11, 0x00000000)  returns 0x00 (0000ms, 1098ms total)
T0F0C 001:197 JLINK_WriteReg(R12, 0x00000000)  returns 0x00 (0000ms, 1098ms total)
T0F0C 001:197 JLINK_WriteReg(R13, 0x20000800)  returns 0x00 (0000ms, 1098ms total)
T0F0C 001:197 JLINK_WriteReg(R14, 0x20000001)  returns 0x00 (0000ms, 1098ms total)
T0F0C 001:197 JLINK_WriteReg(R15, 0x20000020)  returns 0x00 (0000ms, 1098ms total)
T0F0C 001:197 JLINK_WriteReg(XPSR, 0x01000000)  returns 0x00 (0000ms, 1098ms total)
T0F0C 001:197 JLINK_WriteReg(MSP, 0x20000800)  returns 0x00 (0000ms, 1098ms total)
T0F0C 001:197 JLINK_WriteReg(PSP, 0x20000800)  returns 0x00 (0000ms, 1098ms total)
T0F0C 001:197 JLINK_WriteReg(CFBP, 0x00000000)  returns 0x00 (0000ms, 1098ms total)
T0F0C 001:197 JLINK_SetBPEx(Addr = 0x20000000, Type = 0xFFFFFFF2)  returns 0x00000002 (0000ms, 1098ms total)
T0F0C 001:197 JLINK_Go() -- CPU_WriteMem(4 bytes @ 0xE0002008) -- CPU_WriteMem(4 bytes @ 0xE000200C) -- CPU_WriteMem(4 bytes @ 0xE0002010) -- CPU_WriteMem(4 bytes @ 0xE0002014) -- CPU_WriteMem(4 bytes @ 0xE0002018) -- CPU_WriteMem(4 bytes @ 0xE000201C) (0022ms, 1098ms total)
T0F0C 001:219 JLINK_IsHalted() -- CPU_ReadMem(2 bytes @ 0x20000000)  returns TRUE (0011ms, 1120ms total)
T0F0C 001:230 JLINK_ReadReg(R15)  returns 0x20000000 (0000ms, 1120ms total)
T0F0C 001:230 JLINK_ClrBPEx(BPHandle = 0x00000002)  returns 0x00 (0000ms, 1120ms total)
T0F0C 001:230 JLINK_ReadReg(R0)  returns 0x00000001 (0000ms, 1120ms total)
T0F0C 001:230 JLINK_WriteReg(R0, 0x08004000)  returns 0x00 (0000ms, 1120ms total)
T0F0C 001:230 JLINK_WriteReg(R1, 0x00000400)  returns 0x00 (0000ms, 1120ms total)
T0F0C 001:230 JLINK_WriteReg(R2, 0x000000FF)  returns 0x00 (0000ms, 1120ms total)
T0F0C 001:230 JLINK_WriteReg(R3, 0x00000000)  returns 0x00 (0000ms, 1120ms total)
T0F0C 001:230 JLINK_WriteReg(R4, 0x00000000)  returns 0x00 (0000ms, 1120ms total)
T0F0C 001:230 JLINK_WriteReg(R5, 0x00000000)  returns 0x00 (0000ms, 1120ms total)
T0F0C 001:230 JLINK_WriteReg(R6, 0x00000000)  returns 0x00 (0000ms, 1120ms total)
T0F0C 001:230 JLINK_WriteReg(R7, 0x00000000)  returns 0x00 (0000ms, 1120ms total)
T0F0C 001:230 JLINK_WriteReg(R8, 0x00000000)  returns 0x00 (0000ms, 1120ms total)
T0F0C 001:230 JLINK_WriteReg(R9, 0x20000160)  returns 0x00 (0000ms, 1120ms total)
T0F0C 001:230 JLINK_WriteReg(R10, 0x00000000)  returns 0x00 (0000ms, 1120ms total)
T0F0C 001:230 JLINK_WriteReg(R11, 0x00000000)  returns 0x00 (0000ms, 1120ms total)
T0F0C 001:230 JLINK_WriteReg(R12, 0x00000000)  returns 0x00 (0000ms, 1120ms total)
T0F0C 001:230 JLINK_WriteReg(R13, 0x20000800)  returns 0x00 (0000ms, 1120ms total)
T0F0C 001:230 JLINK_WriteReg(R14, 0x20000001)  returns 0x00 (0000ms, 1120ms total)
T0F0C 001:230 JLINK_WriteReg(R15, 0x200000B6)  returns 0x00 (0000ms, 1120ms total)
T0F0C 001:230 JLINK_WriteReg(XPSR, 0x01000000)  returns 0x00 (0000ms, 1120ms total)
T0F0C 001:230 JLINK_WriteReg(MSP, 0x20000800)  returns 0x00 (0000ms, 1120ms total)
T0F0C 001:230 JLINK_WriteReg(PSP, 0x20000800)  returns 0x00 (0000ms, 1120ms total)
T0F0C 001:230 JLINK_WriteReg(CFBP, 0x00000000)  returns 0x00 (0000ms, 1120ms total)
T0F0C 001:230 JLINK_SetBPEx(Addr = 0x20000000, Type = 0xFFFFFFF2)  returns 0x00000003 (0000ms, 1120ms total)
T0F0C 001:230 JLINK_Go() -- CPU_WriteMem(4 bytes @ 0xE0002008) -- CPU_WriteMem(4 bytes @ 0xE000200C) -- CPU_WriteMem(4 bytes @ 0xE0002010) -- CPU_WriteMem(4 bytes @ 0xE0002014) -- CPU_WriteMem(4 bytes @ 0xE0002018) -- CPU_WriteMem(4 bytes @ 0xE000201C) (0017ms, 1120ms total)
T0F0C 001:247 JLINK_IsHalted()  returns FALSE (0002ms, 1137ms total)
T0F0C 001:300 JLINK_IsHalted() -- CPU_ReadMem(2 bytes @ 0x20000000)  returns TRUE (0012ms, 1137ms total)
T0F0C 001:312 JLINK_ReadReg(R15)  returns 0x20000000 (0000ms, 1137ms total)
T0F0C 001:312 JLINK_ClrBPEx(BPHandle = 0x00000003)  returns 0x00 (0000ms, 1137ms total)
T0F0C 001:312 JLINK_ReadReg(R0)  returns 0x00000000 (0000ms, 1137ms total)
T0F0C 001:312 JLINK_WriteReg(R0, 0x08004400)  returns 0x00 (0000ms, 1137ms total)
T0F0C 001:312 JLINK_WriteReg(R1, 0x00000400)  returns 0x00 (0000ms, 1137ms total)
T0F0C 001:312 JLINK_WriteReg(R2, 0x000000FF)  returns 0x00 (0000ms, 1137ms total)
T0F0C 001:312 JLINK_WriteReg(R3, 0x00000000)  returns 0x00 (0000ms, 1137ms total)
T0F0C 001:312 JLINK_WriteReg(R4, 0x00000000)  returns 0x00 (0001ms, 1137ms total)
T0F0C 001:313 JLINK_WriteReg(R5, 0x00000000)  returns 0x00 (0000ms, 1138ms total)
T0F0C 001:313 JLINK_WriteReg(R6, 0x00000000)  returns 0x00 (0000ms, 1138ms total)
T0F0C 001:313 JLINK_WriteReg(R7, 0x00000000)  returns 0x00 (0000ms, 1138ms total)
T0F0C 001:313 JLINK_WriteReg(R8, 0x00000000)  returns 0x00 (0000ms, 1138ms total)
T0F0C 001:313 JLINK_WriteReg(R9, 0x20000160)  returns 0x00 (0000ms, 1138ms total)
T0F0C 001:313 JLINK_WriteReg(R10, 0x00000000)  returns 0x00 (0000ms, 1138ms total)
T0F0C 001:313 JLINK_WriteReg(R11, 0x00000000)  returns 0x00 (0000ms, 1138ms total)
T0F0C 001:313 JLINK_WriteReg(R12, 0x00000000)  returns 0x00 (0000ms, 1138ms total)
T0F0C 001:313 JLINK_WriteReg(R13, 0x20000800)  returns 0x00 (0000ms, 1138ms total)
T0F0C 001:313 JLINK_WriteReg(R14, 0x20000001)  returns 0x00 (0000ms, 1138ms total)
T0F0C 001:313 JLINK_WriteReg(R15, 0x20000020)  returns 0x00 (0000ms, 1138ms total)
T0F0C 001:313 JLINK_WriteReg(XPSR, 0x01000000)  returns 0x00 (0000ms, 1138ms total)
T0F0C 001:313 JLINK_WriteReg(MSP, 0x20000800)  returns 0x00 (0000ms, 1138ms total)
T0F0C 001:313 JLINK_WriteReg(PSP, 0x20000800)  returns 0x00 (0000ms, 1138ms total)
T0F0C 001:313 JLINK_WriteReg(CFBP, 0x00000000)  returns 0x00 (0000ms, 1138ms total)
T0F0C 001:313 JLINK_SetBPEx(Addr = 0x20000000, Type = 0xFFFFFFF2)  returns 0x00000004 (0000ms, 1138ms total)
T0F0C 001:313 JLINK_Go() -- CPU_WriteMem(4 bytes @ 0xE0002008) -- CPU_WriteMem(4 bytes @ 0xE000200C) -- CPU_WriteMem(4 bytes @ 0xE0002010) -- CPU_WriteMem(4 bytes @ 0xE0002014) -- CPU_WriteMem(4 bytes @ 0xE0002018) -- CPU_WriteMem(4 bytes @ 0xE000201C) (0017ms, 1138ms total)
T0F0C 001:330 JLINK_IsHalted() -- CPU_ReadMem(2 bytes @ 0x20000000)  returns TRUE (0014ms, 1155ms total)
T0F0C 001:344 JLINK_ReadReg(R15)  returns 0x20000000 (0000ms, 1155ms total)
T0F0C 001:344 JLINK_ClrBPEx(BPHandle = 0x00000004)  returns 0x00 (0000ms, 1155ms total)
T0F0C 001:344 JLINK_ReadReg(R0)  returns 0x00000001 (0000ms, 1155ms total)
T0F0C 001:344 JLINK_WriteReg(R0, 0x08004400)  returns 0x00 (0000ms, 1155ms total)
T0F0C 001:344 JLINK_WriteReg(R1, 0x00000400)  returns 0x00 (0000ms, 1155ms total)
T0F0C 001:344 JLINK_WriteReg(R2, 0x000000FF)  returns 0x00 (0000ms, 1155ms total)
T0F0C 001:344 JLINK_WriteReg(R3, 0x00000000)  returns 0x00 (0000ms, 1155ms total)
T0F0C 001:344 JLINK_WriteReg(R4, 0x00000000)  returns 0x00 (0000ms, 1155ms total)
T0F0C 001:344 JLINK_WriteReg(R5, 0x00000000)  returns 0x00 (0000ms, 1155ms total)
T0F0C 001:344 JLINK_WriteReg(R6, 0x00000000)  returns 0x00 (0000ms, 1155ms total)
T0F0C 001:344 JLINK_WriteReg(R7, 0x00000000)  returns 0x00 (0000ms, 1155ms total)
T0F0C 001:344 JLINK_WriteReg(R8, 0x00000000)  returns 0x00 (0000ms, 1155ms total)
T0F0C 001:344 JLINK_WriteReg(R9, 0x20000160)  returns 0x00 (0000ms, 1155ms total)
T0F0C 001:344 JLINK_WriteReg(R10, 0x00000000)  returns 0x00 (0000ms, 1155ms total)
T0F0C 001:344 JLINK_WriteReg(R11, 0x00000000)  returns 0x00 (0000ms, 1155ms total)
T0F0C 001:344 JLINK_WriteReg(R12, 0x00000000)  returns 0x00 (0000ms, 1155ms total)
T0F0C 001:344 JLINK_WriteReg(R13, 0x20000800)  returns 0x00 (0000ms, 1155ms total)
T0F0C 001:344 JLINK_WriteReg(R14, 0x20000001)  returns 0x00 (0000ms, 1155ms total)
T0F0C 001:344 JLINK_WriteReg(R15, 0x200000B6)  returns 0x00 (0000ms, 1155ms total)
T0F0C 001:344 JLINK_WriteReg(XPSR, 0x01000000)  returns 0x00 (0000ms, 1155ms total)
T0F0C 001:344 JLINK_WriteReg(MSP, 0x20000800)  returns 0x00 (0000ms, 1155ms total)
T0F0C 001:344 JLINK_WriteReg(PSP, 0x20000800)  returns 0x00 (0000ms, 1155ms total)
T0F0C 001:344 JLINK_WriteReg(CFBP, 0x00000000)  returns 0x00 (0000ms, 1155ms total)
T0F0C 001:344 JLINK_SetBPEx(Addr = 0x20000000, Type = 0xFFFFFFF2)  returns 0x00000005 (0000ms, 1155ms total)
T0F0C 001:344 JLINK_Go() -- CPU_WriteMem(4 bytes @ 0xE0002008) -- CPU_WriteMem(4 bytes @ 0xE000200C) -- CPU_WriteMem(4 bytes @ 0xE0002010) -- CPU_WriteMem(4 bytes @ 0xE0002014) -- CPU_WriteMem(4 bytes @ 0xE0002018) -- CPU_WriteMem(4 bytes @ 0xE000201C) (0019ms, 1155ms total)
T0F0C 001:363 JLINK_IsHalted()  returns FALSE (0002ms, 1174ms total)
T0F0C 001:416 JLINK_IsHalted() -- CPU_ReadMem(2 bytes @ 0x20000000)  returns TRUE (0012ms, 1174ms total)
T0F0C 001:428 JLINK_ReadReg(R15)  returns 0x20000000 (0000ms, 1174ms total)
T0F0C 001:428 JLINK_ClrBPEx(BPHandle = 0x00000005)  returns 0x00 (0000ms, 1174ms total)
T0F0C 001:428 JLINK_ReadReg(R0)  returns 0x00000000 (0000ms, 1174ms total)
T0F0C 001:429 JLINK_WriteReg(R0, 0x08004800)  returns 0x00 (0000ms, 1174ms total)
T0F0C 001:429 JLINK_WriteReg(R1, 0x00000400)  returns 0x00 (0000ms, 1174ms total)
T0F0C 001:429 JLINK_WriteReg(R2, 0x000000FF)  returns 0x00 (0000ms, 1174ms total)
T0F0C 001:429 JLINK_WriteReg(R3, 0x00000000)  returns 0x00 (0000ms, 1174ms total)
T0F0C 001:429 JLINK_WriteReg(R4, 0x00000000)  returns 0x00 (0000ms, 1174ms total)
T0F0C 001:429 JLINK_WriteReg(R5, 0x00000000)  returns 0x00 (0000ms, 1174ms total)
T0F0C 001:429 JLINK_WriteReg(R6, 0x00000000)  returns 0x00 (0000ms, 1174ms total)
T0F0C 001:429 JLINK_WriteReg(R7, 0x00000000)  returns 0x00 (0000ms, 1174ms total)
T0F0C 001:429 JLINK_WriteReg(R8, 0x00000000)  returns 0x00 (0000ms, 1174ms total)
T0F0C 001:429 JLINK_WriteReg(R9, 0x20000160)  returns 0x00 (0000ms, 1174ms total)
T0F0C 001:429 JLINK_WriteReg(R10, 0x00000000)  returns 0x00 (0000ms, 1174ms total)
T0F0C 001:429 JLINK_WriteReg(R11, 0x00000000)  returns 0x00 (0000ms, 1174ms total)
T0F0C 001:429 JLINK_WriteReg(R12, 0x00000000)  returns 0x00 (0000ms, 1174ms total)
T0F0C 001:429 JLINK_WriteReg(R13, 0x20000800)  returns 0x00 (0000ms, 1174ms total)
T0F0C 001:429 JLINK_WriteReg(R14, 0x20000001)  returns 0x00 (0000ms, 1174ms total)
T0F0C 001:429 JLINK_WriteReg(R15, 0x20000020)  returns 0x00 (0000ms, 1174ms total)
T0F0C 001:429 JLINK_WriteReg(XPSR, 0x01000000)  returns 0x00 (0000ms, 1174ms total)
T0F0C 001:429 JLINK_WriteReg(MSP, 0x20000800)  returns 0x00 (0000ms, 1174ms total)
T0F0C 001:429 JLINK_WriteReg(PSP, 0x20000800)  returns 0x00 (0000ms, 1174ms total)
T0F0C 001:429 JLINK_WriteReg(CFBP, 0x00000000)  returns 0x00 (0000ms, 1174ms total)
T0F0C 001:429 JLINK_SetBPEx(Addr = 0x20000000, Type = 0xFFFFFFF2)  returns 0x00000006 (0000ms, 1174ms total)
T0F0C 001:429 JLINK_Go() -- CPU_WriteMem(4 bytes @ 0xE0002008) -- CPU_WriteMem(4 bytes @ 0xE000200C) -- CPU_WriteMem(4 bytes @ 0xE0002010) -- CPU_WriteMem(4 bytes @ 0xE0002014) -- CPU_WriteMem(4 bytes @ 0xE0002018) -- CPU_WriteMem(4 bytes @ 0xE000201C) (0018ms, 1174ms total)
T0F0C 001:447 JLINK_IsHalted() -- CPU_ReadMem(2 bytes @ 0x20000000)  returns TRUE (0013ms, 1192ms total)
T0F0C 001:460 JLINK_ReadReg(R15)  returns 0x20000000 (0000ms, 1192ms total)
T0F0C 001:460 JLINK_ClrBPEx(BPHandle = 0x00000006)  returns 0x00 (0000ms, 1192ms total)
T0F0C 001:460 JLINK_ReadReg(R0)  returns 0x00000001 (0000ms, 1192ms total)
T0F0C 001:460 JLINK_WriteReg(R0, 0x08004800)  returns 0x00 (0000ms, 1192ms total)
T0F0C 001:460 JLINK_WriteReg(R1, 0x00000400)  returns 0x00 (0000ms, 1192ms total)
T0F0C 001:460 JLINK_WriteReg(R2, 0x000000FF)  returns 0x00 (0000ms, 1192ms total)
T0F0C 001:460 JLINK_WriteReg(R3, 0x00000000)  returns 0x00 (0000ms, 1192ms total)
T0F0C 001:460 JLINK_WriteReg(R4, 0x00000000)  returns 0x00 (0000ms, 1192ms total)
T0F0C 001:460 JLINK_WriteReg(R5, 0x00000000)  returns 0x00 (0000ms, 1192ms total)
T0F0C 001:460 JLINK_WriteReg(R6, 0x00000000)  returns 0x00 (0000ms, 1192ms total)
T0F0C 001:460 JLINK_WriteReg(R7, 0x00000000)  returns 0x00 (0000ms, 1192ms total)
T0F0C 001:460 JLINK_WriteReg(R8, 0x00000000)  returns 0x00 (0000ms, 1192ms total)
T0F0C 001:460 JLINK_WriteReg(R9, 0x20000160)  returns 0x00 (0000ms, 1192ms total)
T0F0C 001:460 JLINK_WriteReg(R10, 0x00000000)  returns 0x00 (0000ms, 1192ms total)
T0F0C 001:460 JLINK_WriteReg(R11, 0x00000000)  returns 0x00 (0000ms, 1192ms total)
T0F0C 001:460 JLINK_WriteReg(R12, 0x00000000)  returns 0x00 (0000ms, 1192ms total)
T0F0C 001:460 JLINK_WriteReg(R13, 0x20000800)  returns 0x00 (0000ms, 1192ms total)
T0F0C 001:460 JLINK_WriteReg(R14, 0x20000001)  returns 0x00 (0000ms, 1192ms total)
T0F0C 001:460 JLINK_WriteReg(R15, 0x200000B6)  returns 0x00 (0000ms, 1192ms total)
T0F0C 001:460 JLINK_WriteReg(XPSR, 0x01000000)  returns 0x00 (0000ms, 1192ms total)
T0F0C 001:460 JLINK_WriteReg(MSP, 0x20000800)  returns 0x00 (0000ms, 1192ms total)
T0F0C 001:460 JLINK_WriteReg(PSP, 0x20000800)  returns 0x00 (0000ms, 1192ms total)
T0F0C 001:460 JLINK_WriteReg(CFBP, 0x00000000)  returns 0x00 (0000ms, 1192ms total)
T0F0C 001:460 JLINK_SetBPEx(Addr = 0x20000000, Type = 0xFFFFFFF2)  returns 0x00000007 (0000ms, 1192ms total)
T0F0C 001:460 JLINK_Go() -- CPU_WriteMem(4 bytes @ 0xE0002008) -- CPU_WriteMem(4 bytes @ 0xE000200C) -- CPU_WriteMem(4 bytes @ 0xE0002010) -- CPU_WriteMem(4 bytes @ 0xE0002014) -- CPU_WriteMem(4 bytes @ 0xE0002018) -- CPU_WriteMem(4 bytes @ 0xE000201C) (0016ms, 1192ms total)
T0F0C 001:476 JLINK_IsHalted()  returns FALSE (0002ms, 1208ms total)
T0F0C 001:529 JLINK_IsHalted() -- CPU_ReadMem(2 bytes @ 0x20000000)  returns TRUE (0014ms, 1208ms total)
T0F0C 001:543 JLINK_ReadReg(R15)  returns 0x20000000 (0000ms, 1208ms total)
T0F0C 001:543 JLINK_ClrBPEx(BPHandle = 0x00000007)  returns 0x00 (0000ms, 1208ms total)
T0F0C 001:543 JLINK_ReadReg(R0)  returns 0x00000000 (0000ms, 1208ms total)
T0F0C 001:543 JLINK_WriteReg(R0, 0x08004C00)  returns 0x00 (0000ms, 1208ms total)
T0F0C 001:543 JLINK_WriteReg(R1, 0x00000400)  returns 0x00 (0000ms, 1208ms total)
T0F0C 001:543 JLINK_WriteReg(R2, 0x000000FF)  returns 0x00 (0000ms, 1208ms total)
T0F0C 001:543 JLINK_WriteReg(R3, 0x00000000)  returns 0x00 (0000ms, 1208ms total)
T0F0C 001:543 JLINK_WriteReg(R4, 0x00000000)  returns 0x00 (0000ms, 1208ms total)
T0F0C 001:543 JLINK_WriteReg(R5, 0x00000000)  returns 0x00 (0000ms, 1208ms total)
T0F0C 001:543 JLINK_WriteReg(R6, 0x00000000)  returns 0x00 (0000ms, 1208ms total)
T0F0C 001:543 JLINK_WriteReg(R7, 0x00000000)  returns 0x00 (0000ms, 1208ms total)
T0F0C 001:543 JLINK_WriteReg(R8, 0x00000000)  returns 0x00 (0000ms, 1208ms total)
T0F0C 001:543 JLINK_WriteReg(R9, 0x20000160)  returns 0x00 (0000ms, 1208ms total)
T0F0C 001:543 JLINK_WriteReg(R10, 0x00000000)  returns 0x00 (0000ms, 1208ms total)
T0F0C 001:543 JLINK_WriteReg(R11, 0x00000000)  returns 0x00 (0000ms, 1208ms total)
T0F0C 001:543 JLINK_WriteReg(R12, 0x00000000)  returns 0x00 (0000ms, 1208ms total)
T0F0C 001:543 JLINK_WriteReg(R13, 0x20000800)  returns 0x00 (0000ms, 1208ms total)
T0F0C 001:543 JLINK_WriteReg(R14, 0x20000001)  returns 0x00 (0000ms, 1208ms total)
T0F0C 001:543 JLINK_WriteReg(R15, 0x20000020)  returns 0x00 (0000ms, 1208ms total)
T0F0C 001:543 JLINK_WriteReg(XPSR, 0x01000000)  returns 0x00 (0000ms, 1208ms total)
T0F0C 001:543 JLINK_WriteReg(MSP, 0x20000800)  returns 0x00 (0000ms, 1208ms total)
T0F0C 001:543 JLINK_WriteReg(PSP, 0x20000800)  returns 0x00 (0000ms, 1208ms total)
T0F0C 001:543 JLINK_WriteReg(CFBP, 0x00000000)  returns 0x00 (0000ms, 1208ms total)
T0F0C 001:543 JLINK_SetBPEx(Addr = 0x20000000, Type = 0xFFFFFFF2)  returns 0x00000008 (0000ms, 1208ms total)
T0F0C 001:543 JLINK_Go() -- CPU_WriteMem(4 bytes @ 0xE0002008) -- CPU_WriteMem(4 bytes @ 0xE000200C) -- CPU_WriteMem(4 bytes @ 0xE0002010) -- CPU_WriteMem(4 bytes @ 0xE0002014) -- CPU_WriteMem(4 bytes @ 0xE0002018) -- CPU_WriteMem(4 bytes @ 0xE000201C) (0018ms, 1208ms total)
T0F0C 001:561 JLINK_IsHalted() -- CPU_ReadMem(2 bytes @ 0x20000000)  returns TRUE (0014ms, 1226ms total)
T0F0C 001:575 JLINK_ReadReg(R15)  returns 0x20000000 (0000ms, 1226ms total)
T0F0C 001:575 JLINK_ClrBPEx(BPHandle = 0x00000008)  returns 0x00 (0000ms, 1226ms total)
T0F0C 001:575 JLINK_ReadReg(R0)  returns 0x00000001 (0000ms, 1226ms total)
T0F0C 001:575 JLINK_WriteReg(R0, 0x08004C00)  returns 0x00 (0000ms, 1226ms total)
T0F0C 001:575 JLINK_WriteReg(R1, 0x00000400)  returns 0x00 (0000ms, 1226ms total)
T0F0C 001:575 JLINK_WriteReg(R2, 0x000000FF)  returns 0x00 (0000ms, 1226ms total)
T0F0C 001:575 JLINK_WriteReg(R3, 0x00000000)  returns 0x00 (0000ms, 1226ms total)
T0F0C 001:575 JLINK_WriteReg(R4, 0x00000000)  returns 0x00 (0000ms, 1226ms total)
T0F0C 001:575 JLINK_WriteReg(R5, 0x00000000)  returns 0x00 (0000ms, 1226ms total)
T0F0C 001:575 JLINK_WriteReg(R6, 0x00000000)  returns 0x00 (0000ms, 1226ms total)
T0F0C 001:575 JLINK_WriteReg(R7, 0x00000000)  returns 0x00 (0000ms, 1226ms total)
T0F0C 001:575 JLINK_WriteReg(R8, 0x00000000)  returns 0x00 (0000ms, 1226ms total)
T0F0C 001:575 JLINK_WriteReg(R9, 0x20000160)  returns 0x00 (0000ms, 1226ms total)
T0F0C 001:575 JLINK_WriteReg(R10, 0x00000000)  returns 0x00 (0000ms, 1226ms total)
T0F0C 001:575 JLINK_WriteReg(R11, 0x00000000)  returns 0x00 (0000ms, 1226ms total)
T0F0C 001:575 JLINK_WriteReg(R12, 0x00000000)  returns 0x00 (0000ms, 1226ms total)
T0F0C 001:575 JLINK_WriteReg(R13, 0x20000800)  returns 0x00 (0000ms, 1226ms total)
T0F0C 001:575 JLINK_WriteReg(R14, 0x20000001)  returns 0x00 (0000ms, 1226ms total)
T0F0C 001:575 JLINK_WriteReg(R15, 0x200000B6)  returns 0x00 (0000ms, 1226ms total)
T0F0C 001:575 JLINK_WriteReg(XPSR, 0x01000000)  returns 0x00 (0000ms, 1226ms total)
T0F0C 001:575 JLINK_WriteReg(MSP, 0x20000800)  returns 0x00 (0000ms, 1226ms total)
T0F0C 001:575 JLINK_WriteReg(PSP, 0x20000800)  returns 0x00 (0000ms, 1226ms total)
T0F0C 001:575 JLINK_WriteReg(CFBP, 0x00000000)  returns 0x00 (0000ms, 1226ms total)
T0F0C 001:575 JLINK_SetBPEx(Addr = 0x20000000, Type = 0xFFFFFFF2)  returns 0x00000009 (0000ms, 1226ms total)
T0F0C 001:575 JLINK_Go() -- CPU_WriteMem(4 bytes @ 0xE0002008) -- CPU_WriteMem(4 bytes @ 0xE000200C) -- CPU_WriteMem(4 bytes @ 0xE0002010) -- CPU_WriteMem(4 bytes @ 0xE0002014) -- CPU_WriteMem(4 bytes @ 0xE0002018) -- CPU_WriteMem(4 bytes @ 0xE000201C) (0021ms, 1226ms total)
T0F0C 001:596 JLINK_IsHalted()  returns FALSE (0002ms, 1247ms total)
T0F0C 001:648 JLINK_IsHalted() -- CPU_ReadMem(2 bytes @ 0x20000000)  returns TRUE (0020ms, 1247ms total)
T0F0C 001:668 JLINK_ReadReg(R15)  returns 0x20000000 (0000ms, 1247ms total)
T0F0C 001:668 JLINK_ClrBPEx(BPHandle = 0x00000009)  returns 0x00 (0000ms, 1247ms total)
T0F0C 001:668 JLINK_ReadReg(R0)  returns 0x00000000 (0000ms, 1247ms total)
T0F0C 001:669 JLINK_WriteReg(R0, 0x08005000)  returns 0x00 (0000ms, 1247ms total)
T0F0C 001:669 JLINK_WriteReg(R1, 0x00000400)  returns 0x00 (0000ms, 1247ms total)
T0F0C 001:669 JLINK_WriteReg(R2, 0x000000FF)  returns 0x00 (0000ms, 1247ms total)
T0F0C 001:669 JLINK_WriteReg(R3, 0x00000000)  returns 0x00 (0000ms, 1247ms total)
T0F0C 001:669 JLINK_WriteReg(R4, 0x00000000)  returns 0x00 (0000ms, 1247ms total)
T0F0C 001:669 JLINK_WriteReg(R5, 0x00000000)  returns 0x00 (0000ms, 1247ms total)
T0F0C 001:669 JLINK_WriteReg(R6, 0x00000000)  returns 0x00 (0000ms, 1247ms total)
T0F0C 001:669 JLINK_WriteReg(R7, 0x00000000)  returns 0x00 (0000ms, 1247ms total)
T0F0C 001:669 JLINK_WriteReg(R8, 0x00000000)  returns 0x00 (0000ms, 1247ms total)
T0F0C 001:669 JLINK_WriteReg(R9, 0x20000160)  returns 0x00 (0000ms, 1247ms total)
T0F0C 001:669 JLINK_WriteReg(R10, 0x00000000)  returns 0x00 (0000ms, 1247ms total)
T0F0C 001:669 JLINK_WriteReg(R11, 0x00000000)  returns 0x00 (0000ms, 1247ms total)
T0F0C 001:669 JLINK_WriteReg(R12, 0x00000000)  returns 0x00 (0000ms, 1247ms total)
T0F0C 001:669 JLINK_WriteReg(R13, 0x20000800)  returns 0x00 (0000ms, 1247ms total)
T0F0C 001:669 JLINK_WriteReg(R14, 0x20000001)  returns 0x00 (0000ms, 1247ms total)
T0F0C 001:669 JLINK_WriteReg(R15, 0x20000020)  returns 0x00 (0000ms, 1247ms total)
T0F0C 001:669 JLINK_WriteReg(XPSR, 0x01000000)  returns 0x00 (0000ms, 1247ms total)
T0F0C 001:669 JLINK_WriteReg(MSP, 0x20000800)  returns 0x00 (0000ms, 1247ms total)
T0F0C 001:669 JLINK_WriteReg(PSP, 0x20000800)  returns 0x00 (0000ms, 1247ms total)
T0F0C 001:669 JLINK_WriteReg(CFBP, 0x00000000)  returns 0x00 (0000ms, 1247ms total)
T0F0C 001:669 JLINK_SetBPEx(Addr = 0x20000000, Type = 0xFFFFFFF2)  returns 0x0000000A (0000ms, 1247ms total)
T0F0C 001:669 JLINK_Go() -- CPU_WriteMem(4 bytes @ 0xE0002008) -- CPU_WriteMem(4 bytes @ 0xE000200C) -- CPU_WriteMem(4 bytes @ 0xE0002010) -- CPU_WriteMem(4 bytes @ 0xE0002014) -- CPU_WriteMem(4 bytes @ 0xE0002018) -- CPU_WriteMem(4 bytes @ 0xE000201C) (0017ms, 1247ms total)
T0F0C 001:686 JLINK_IsHalted() -- CPU_ReadMem(2 bytes @ 0x20000000)  returns TRUE (0013ms, 1264ms total)
T0F0C 001:699 JLINK_ReadReg(R15)  returns 0x20000000 (0000ms, 1264ms total)
T0F0C 001:699 JLINK_ClrBPEx(BPHandle = 0x0000000A)  returns 0x00 (0000ms, 1264ms total)
T0F0C 001:699 JLINK_ReadReg(R0)  returns 0x00000001 (0000ms, 1264ms total)
T0F0C 001:699 JLINK_WriteReg(R0, 0x08005000)  returns 0x00 (0000ms, 1264ms total)
T0F0C 001:699 JLINK_WriteReg(R1, 0x00000400)  returns 0x00 (0000ms, 1264ms total)
T0F0C 001:699 JLINK_WriteReg(R2, 0x000000FF)  returns 0x00 (0000ms, 1264ms total)
T0F0C 001:699 JLINK_WriteReg(R3, 0x00000000)  returns 0x00 (0000ms, 1264ms total)
T0F0C 001:699 JLINK_WriteReg(R4, 0x00000000)  returns 0x00 (0000ms, 1264ms total)
T0F0C 001:699 JLINK_WriteReg(R5, 0x00000000)  returns 0x00 (0000ms, 1264ms total)
T0F0C 001:699 JLINK_WriteReg(R6, 0x00000000)  returns 0x00 (0000ms, 1264ms total)
T0F0C 001:699 JLINK_WriteReg(R7, 0x00000000)  returns 0x00 (0000ms, 1264ms total)
T0F0C 001:699 JLINK_WriteReg(R8, 0x00000000)  returns 0x00 (0000ms, 1264ms total)
T0F0C 001:699 JLINK_WriteReg(R9, 0x20000160)  returns 0x00 (0000ms, 1264ms total)
T0F0C 001:699 JLINK_WriteReg(R10, 0x00000000)  returns 0x00 (0000ms, 1264ms total)
T0F0C 001:699 JLINK_WriteReg(R11, 0x00000000)  returns 0x00 (0000ms, 1264ms total)
T0F0C 001:699 JLINK_WriteReg(R12, 0x00000000)  returns 0x00 (0000ms, 1264ms total)
T0F0C 001:699 JLINK_WriteReg(R13, 0x20000800)  returns 0x00 (0000ms, 1264ms total)
T0F0C 001:699 JLINK_WriteReg(R14, 0x20000001)  returns 0x00 (0000ms, 1264ms total)
T0F0C 001:699 JLINK_WriteReg(R15, 0x200000B6)  returns 0x00 (0000ms, 1264ms total)
T0F0C 001:699 JLINK_WriteReg(XPSR, 0x01000000)  returns 0x00 (0000ms, 1264ms total)
T0F0C 001:699 JLINK_WriteReg(MSP, 0x20000800)  returns 0x00 (0000ms, 1264ms total)
T0F0C 001:699 JLINK_WriteReg(PSP, 0x20000800)  returns 0x00 (0000ms, 1264ms total)
T0F0C 001:699 JLINK_WriteReg(CFBP, 0x00000000)  returns 0x00 (0000ms, 1264ms total)
T0F0C 001:699 JLINK_SetBPEx(Addr = 0x20000000, Type = 0xFFFFFFF2)  returns 0x0000000B (0000ms, 1264ms total)
T0F0C 001:699 JLINK_Go() -- CPU_WriteMem(4 bytes @ 0xE0002008) -- CPU_WriteMem(4 bytes @ 0xE000200C) -- CPU_WriteMem(4 bytes @ 0xE0002010) -- CPU_WriteMem(4 bytes @ 0xE0002014) -- CPU_WriteMem(4 bytes @ 0xE0002018) -- CPU_WriteMem(4 bytes @ 0xE000201C) (0020ms, 1264ms total)
T0F0C 001:719 JLINK_IsHalted()  returns FALSE (0003ms, 1284ms total)
T0F0C 001:772 JLINK_IsHalted() -- CPU_ReadMem(2 bytes @ 0x20000000)  returns TRUE (0022ms, 1284ms total)
T0F0C 001:794 JLINK_ReadReg(R15)  returns 0x20000000 (0000ms, 1284ms total)
T0F0C 001:794 JLINK_ClrBPEx(BPHandle = 0x0000000B)  returns 0x00 (0000ms, 1284ms total)
T0F0C 001:794 JLINK_ReadReg(R0)  returns 0x00000000 (0000ms, 1284ms total)
T0F0C 001:795 JLINK_WriteReg(R0, 0x08005400)  returns 0x00 (0000ms, 1284ms total)
T0F0C 001:795 JLINK_WriteReg(R1, 0x00000400)  returns 0x00 (0000ms, 1284ms total)
T0F0C 001:795 JLINK_WriteReg(R2, 0x000000FF)  returns 0x00 (0000ms, 1284ms total)
T0F0C 001:795 JLINK_WriteReg(R3, 0x00000000)  returns 0x00 (0000ms, 1284ms total)
T0F0C 001:795 JLINK_WriteReg(R4, 0x00000000)  returns 0x00 (0000ms, 1284ms total)
T0F0C 001:795 JLINK_WriteReg(R5, 0x00000000)  returns 0x00 (0000ms, 1284ms total)
T0F0C 001:795 JLINK_WriteReg(R6, 0x00000000)  returns 0x00 (0000ms, 1284ms total)
T0F0C 001:795 JLINK_WriteReg(R7, 0x00000000)  returns 0x00 (0000ms, 1284ms total)
T0F0C 001:795 JLINK_WriteReg(R8, 0x00000000)  returns 0x00 (0000ms, 1284ms total)
T0F0C 001:795 JLINK_WriteReg(R9, 0x20000160)  returns 0x00 (0000ms, 1284ms total)
T0F0C 001:795 JLINK_WriteReg(R10, 0x00000000)  returns 0x00 (0000ms, 1284ms total)
T0F0C 001:795 JLINK_WriteReg(R11, 0x00000000)  returns 0x00 (0000ms, 1284ms total)
T0F0C 001:795 JLINK_WriteReg(R12, 0x00000000)  returns 0x00 (0000ms, 1284ms total)
T0F0C 001:795 JLINK_WriteReg(R13, 0x20000800)  returns 0x00 (0000ms, 1284ms total)
T0F0C 001:795 JLINK_WriteReg(R14, 0x20000001)  returns 0x00 (0000ms, 1284ms total)
T0F0C 001:795 JLINK_WriteReg(R15, 0x20000020)  returns 0x00 (0000ms, 1284ms total)
T0F0C 001:795 JLINK_WriteReg(XPSR, 0x01000000)  returns 0x00 (0000ms, 1284ms total)
T0F0C 001:795 JLINK_WriteReg(MSP, 0x20000800)  returns 0x00 (0000ms, 1284ms total)
T0F0C 001:795 JLINK_WriteReg(PSP, 0x20000800)  returns 0x00 (0000ms, 1284ms total)
T0F0C 001:795 JLINK_WriteReg(CFBP, 0x00000000)  returns 0x00 (0000ms, 1284ms total)
T0F0C 001:795 JLINK_SetBPEx(Addr = 0x20000000, Type = 0xFFFFFFF2)  returns 0x0000000C (0000ms, 1284ms total)
T0F0C 001:795 JLINK_Go() -- CPU_WriteMem(4 bytes @ 0xE0002008) -- CPU_WriteMem(4 bytes @ 0xE000200C) -- CPU_WriteMem(4 bytes @ 0xE0002010) -- CPU_WriteMem(4 bytes @ 0xE0002014) -- CPU_WriteMem(4 bytes @ 0xE0002018) -- CPU_WriteMem(4 bytes @ 0xE000201C) (0016ms, 1284ms total)
T0F0C 001:811 JLINK_IsHalted() -- CPU_ReadMem(2 bytes @ 0x20000000)  returns TRUE (0014ms, 1300ms total)
T0F0C 001:825 JLINK_ReadReg(R15)  returns 0x20000000 (0000ms, 1300ms total)
T0F0C 001:825 JLINK_ClrBPEx(BPHandle = 0x0000000C)  returns 0x00 (0000ms, 1300ms total)
T0F0C 001:825 JLINK_ReadReg(R0)  returns 0x00000001 (0000ms, 1300ms total)
T0F0C 001:825 JLINK_WriteReg(R0, 0x08005400)  returns 0x00 (0000ms, 1300ms total)
T0F0C 001:825 JLINK_WriteReg(R1, 0x00000400)  returns 0x00 (0000ms, 1300ms total)
T0F0C 001:825 JLINK_WriteReg(R2, 0x000000FF)  returns 0x00 (0000ms, 1300ms total)
T0F0C 001:825 JLINK_WriteReg(R3, 0x00000000)  returns 0x00 (0000ms, 1300ms total)
T0F0C 001:825 JLINK_WriteReg(R4, 0x00000000)  returns 0x00 (0000ms, 1300ms total)
T0F0C 001:825 JLINK_WriteReg(R5, 0x00000000)  returns 0x00 (0000ms, 1300ms total)
T0F0C 001:825 JLINK_WriteReg(R6, 0x00000000)  returns 0x00 (0000ms, 1300ms total)
T0F0C 001:825 JLINK_WriteReg(R7, 0x00000000)  returns 0x00 (0000ms, 1300ms total)
T0F0C 001:825 JLINK_WriteReg(R8, 0x00000000)  returns 0x00 (0000ms, 1300ms total)
T0F0C 001:825 JLINK_WriteReg(R9, 0x20000160)  returns 0x00 (0000ms, 1300ms total)
T0F0C 001:825 JLINK_WriteReg(R10, 0x00000000)  returns 0x00 (0000ms, 1300ms total)
T0F0C 001:825 JLINK_WriteReg(R11, 0x00000000)  returns 0x00 (0000ms, 1300ms total)
T0F0C 001:825 JLINK_WriteReg(R12, 0x00000000)  returns 0x00 (0000ms, 1300ms total)
T0F0C 001:825 JLINK_WriteReg(R13, 0x20000800)  returns 0x00 (0000ms, 1300ms total)
T0F0C 001:825 JLINK_WriteReg(R14, 0x20000001)  returns 0x00 (0000ms, 1300ms total)
T0F0C 001:825 JLINK_WriteReg(R15, 0x200000B6)  returns 0x00 (0000ms, 1300ms total)
T0F0C 001:825 JLINK_WriteReg(XPSR, 0x01000000)  returns 0x00 (0000ms, 1300ms total)
T0F0C 001:825 JLINK_WriteReg(MSP, 0x20000800)  returns 0x00 (0000ms, 1300ms total)
T0F0C 001:825 JLINK_WriteReg(PSP, 0x20000800)  returns 0x00 (0000ms, 1300ms total)
T0F0C 001:825 JLINK_WriteReg(CFBP, 0x00000000)  returns 0x00 (0000ms, 1300ms total)
T0F0C 001:825 JLINK_SetBPEx(Addr = 0x20000000, Type = 0xFFFFFFF2)  returns 0x0000000D (0000ms, 1300ms total)
T0F0C 001:825 JLINK_Go() -- CPU_WriteMem(4 bytes @ 0xE0002008) -- CPU_WriteMem(4 bytes @ 0xE000200C) -- CPU_WriteMem(4 bytes @ 0xE0002010) -- CPU_WriteMem(4 bytes @ 0xE0002014) -- CPU_WriteMem(4 bytes @ 0xE0002018) -- CPU_WriteMem(4 bytes @ 0xE000201C) (0018ms, 1300ms total)
T0F0C 001:843 JLINK_IsHalted()  returns FALSE (0003ms, 1318ms total)
T0F0C 001:896 JLINK_IsHalted() -- CPU_ReadMem(2 bytes @ 0x20000000)  returns TRUE (0021ms, 1318ms total)
T0F0C 001:917 JLINK_ReadReg(R15)  returns 0x20000000 (0000ms, 1318ms total)
T0F0C 001:917 JLINK_ClrBPEx(BPHandle = 0x0000000D)  returns 0x00 (0000ms, 1318ms total)
T0F0C 001:917 JLINK_ReadReg(R0)  returns 0x00000000 (0000ms, 1318ms total)
T0F0C 001:918 JLINK_WriteReg(R0, 0x08005800)  returns 0x00 (0000ms, 1318ms total)
T0F0C 001:918 JLINK_WriteReg(R1, 0x00000400)  returns 0x00 (0000ms, 1318ms total)
T0F0C 001:918 JLINK_WriteReg(R2, 0x000000FF)  returns 0x00 (0000ms, 1318ms total)
T0F0C 001:918 JLINK_WriteReg(R3, 0x00000000)  returns 0x00 (0000ms, 1318ms total)
T0F0C 001:918 JLINK_WriteReg(R4, 0x00000000)  returns 0x00 (0000ms, 1318ms total)
T0F0C 001:918 JLINK_WriteReg(R5, 0x00000000)  returns 0x00 (0000ms, 1318ms total)
T0F0C 001:918 JLINK_WriteReg(R6, 0x00000000)  returns 0x00 (0000ms, 1318ms total)
T0F0C 001:918 JLINK_WriteReg(R7, 0x00000000)  returns 0x00 (0000ms, 1318ms total)
T0F0C 001:918 JLINK_WriteReg(R8, 0x00000000)  returns 0x00 (0000ms, 1318ms total)
T0F0C 001:918 JLINK_WriteReg(R9, 0x20000160)  returns 0x00 (0000ms, 1318ms total)
T0F0C 001:918 JLINK_WriteReg(R10, 0x00000000)  returns 0x00 (0000ms, 1318ms total)
T0F0C 001:918 JLINK_WriteReg(R11, 0x00000000)  returns 0x00 (0000ms, 1318ms total)
T0F0C 001:918 JLINK_WriteReg(R12, 0x00000000)  returns 0x00 (0000ms, 1318ms total)
T0F0C 001:918 JLINK_WriteReg(R13, 0x20000800)  returns 0x00 (0000ms, 1318ms total)
T0F0C 001:918 JLINK_WriteReg(R14, 0x20000001)  returns 0x00 (0000ms, 1318ms total)
T0F0C 001:918 JLINK_WriteReg(R15, 0x20000020)  returns 0x00 (0000ms, 1318ms total)
T0F0C 001:918 JLINK_WriteReg(XPSR, 0x01000000)  returns 0x00 (0000ms, 1318ms total)
T0F0C 001:918 JLINK_WriteReg(MSP, 0x20000800)  returns 0x00 (0000ms, 1318ms total)
T0F0C 001:918 JLINK_WriteReg(PSP, 0x20000800)  returns 0x00 (0000ms, 1318ms total)
T0F0C 001:918 JLINK_WriteReg(CFBP, 0x00000000)  returns 0x00 (0000ms, 1318ms total)
T0F0C 001:918 JLINK_SetBPEx(Addr = 0x20000000, Type = 0xFFFFFFF2)  returns 0x0000000E (0000ms, 1318ms total)
T0F0C 001:918 JLINK_Go() -- CPU_WriteMem(4 bytes @ 0xE0002008) -- CPU_WriteMem(4 bytes @ 0xE000200C) -- CPU_WriteMem(4 bytes @ 0xE0002010) -- CPU_WriteMem(4 bytes @ 0xE0002014) -- CPU_WriteMem(4 bytes @ 0xE0002018) -- CPU_WriteMem(4 bytes @ 0xE000201C) (0019ms, 1318ms total)
T0F0C 001:937 JLINK_IsHalted() -- CPU_ReadMem(2 bytes @ 0x20000000)  returns TRUE (0014ms, 1337ms total)
T0F0C 001:951 JLINK_ReadReg(R15)  returns 0x20000000 (0000ms, 1337ms total)
T0F0C 001:951 JLINK_ClrBPEx(BPHandle = 0x0000000E)  returns 0x00 (0000ms, 1337ms total)
T0F0C 001:951 JLINK_ReadReg(R0)  returns 0x00000001 (0000ms, 1337ms total)
T0F0C 001:951 JLINK_WriteReg(R0, 0x08005800)  returns 0x00 (0000ms, 1337ms total)
T0F0C 001:951 JLINK_WriteReg(R1, 0x00000400)  returns 0x00 (0000ms, 1337ms total)
T0F0C 001:951 JLINK_WriteReg(R2, 0x000000FF)  returns 0x00 (0000ms, 1337ms total)
T0F0C 001:951 JLINK_WriteReg(R3, 0x00000000)  returns 0x00 (0000ms, 1337ms total)
T0F0C 001:951 JLINK_WriteReg(R4, 0x00000000)  returns 0x00 (0000ms, 1337ms total)
T0F0C 001:951 JLINK_WriteReg(R5, 0x00000000)  returns 0x00 (0000ms, 1337ms total)
T0F0C 001:951 JLINK_WriteReg(R6, 0x00000000)  returns 0x00 (0000ms, 1337ms total)
T0F0C 001:951 JLINK_WriteReg(R7, 0x00000000)  returns 0x00 (0000ms, 1337ms total)
T0F0C 001:951 JLINK_WriteReg(R8, 0x00000000)  returns 0x00 (0000ms, 1337ms total)
T0F0C 001:951 JLINK_WriteReg(R9, 0x20000160)  returns 0x00 (0000ms, 1337ms total)
T0F0C 001:951 JLINK_WriteReg(R10, 0x00000000)  returns 0x00 (0000ms, 1337ms total)
T0F0C 001:951 JLINK_WriteReg(R11, 0x00000000)  returns 0x00 (0000ms, 1337ms total)
T0F0C 001:951 JLINK_WriteReg(R12, 0x00000000)  returns 0x00 (0000ms, 1337ms total)
T0F0C 001:951 JLINK_WriteReg(R13, 0x20000800)  returns 0x00 (0000ms, 1337ms total)
T0F0C 001:951 JLINK_WriteReg(R14, 0x20000001)  returns 0x00 (0000ms, 1337ms total)
T0F0C 001:951 JLINK_WriteReg(R15, 0x200000B6)  returns 0x00 (0000ms, 1337ms total)
T0F0C 001:951 JLINK_WriteReg(XPSR, 0x01000000)  returns 0x00 (0000ms, 1337ms total)
T0F0C 001:951 JLINK_WriteReg(MSP, 0x20000800)  returns 0x00 (0000ms, 1337ms total)
T0F0C 001:951 JLINK_WriteReg(PSP, 0x20000800)  returns 0x00 (0000ms, 1337ms total)
T0F0C 001:951 JLINK_WriteReg(CFBP, 0x00000000)  returns 0x00 (0000ms, 1337ms total)
T0F0C 001:951 JLINK_SetBPEx(Addr = 0x20000000, Type = 0xFFFFFFF2)  returns 0x0000000F (0000ms, 1337ms total)
T0F0C 001:951 JLINK_Go() -- CPU_WriteMem(4 bytes @ 0xE0002008) -- CPU_WriteMem(4 bytes @ 0xE000200C) -- CPU_WriteMem(4 bytes @ 0xE0002010) -- CPU_WriteMem(4 bytes @ 0xE0002014) -- CPU_WriteMem(4 bytes @ 0xE0002018) -- CPU_WriteMem(4 bytes @ 0xE000201C) (0020ms, 1337ms total)
T0F0C 001:971 JLINK_IsHalted()  returns FALSE (0002ms, 1357ms total)
T0F0C 002:023 JLINK_IsHalted() -- CPU_ReadMem(2 bytes @ 0x20000000)  returns TRUE (0015ms, 1357ms total)
T0F0C 002:040 JLINK_ReadReg(R15)  returns 0x20000000 (0000ms, 1357ms total)
T0F0C 002:040 JLINK_ClrBPEx(BPHandle = 0x0000000F)  returns 0x00 (0000ms, 1357ms total)
T0F0C 002:040 JLINK_ReadReg(R0)  returns 0x00000000 (0000ms, 1357ms total)
T0F0C 002:041 JLINK_WriteReg(R0, 0x08005C00)  returns 0x00 (0000ms, 1357ms total)
T0F0C 002:041 JLINK_WriteReg(R1, 0x00000400)  returns 0x00 (0000ms, 1357ms total)
T0F0C 002:041 JLINK_WriteReg(R2, 0x000000FF)  returns 0x00 (0000ms, 1357ms total)
T0F0C 002:041 JLINK_WriteReg(R3, 0x00000000)  returns 0x00 (0000ms, 1357ms total)
T0F0C 002:041 JLINK_WriteReg(R4, 0x00000000)  returns 0x00 (0000ms, 1357ms total)
T0F0C 002:041 JLINK_WriteReg(R5, 0x00000000)  returns 0x00 (0000ms, 1357ms total)
T0F0C 002:041 JLINK_WriteReg(R6, 0x00000000)  returns 0x00 (0000ms, 1357ms total)
T0F0C 002:041 JLINK_WriteReg(R7, 0x00000000)  returns 0x00 (0000ms, 1357ms total)
T0F0C 002:041 JLINK_WriteReg(R8, 0x00000000)  returns 0x00 (0000ms, 1357ms total)
T0F0C 002:041 JLINK_WriteReg(R9, 0x20000160)  returns 0x00 (0000ms, 1357ms total)
T0F0C 002:041 JLINK_WriteReg(R10, 0x00000000)  returns 0x00 (0000ms, 1357ms total)
T0F0C 002:041 JLINK_WriteReg(R11, 0x00000000)  returns 0x00 (0000ms, 1357ms total)
T0F0C 002:041 JLINK_WriteReg(R12, 0x00000000)  returns 0x00 (0000ms, 1357ms total)
T0F0C 002:041 JLINK_WriteReg(R13, 0x20000800)  returns 0x00 (0000ms, 1357ms total)
T0F0C 002:041 JLINK_WriteReg(R14, 0x20000001)  returns 0x00 (0000ms, 1357ms total)
T0F0C 002:041 JLINK_WriteReg(R15, 0x20000020)  returns 0x00 (0000ms, 1357ms total)
T0F0C 002:041 JLINK_WriteReg(XPSR, 0x01000000)  returns 0x00 (0000ms, 1357ms total)
T0F0C 002:041 JLINK_WriteReg(MSP, 0x20000800)  returns 0x00 (0000ms, 1357ms total)
T0F0C 002:041 JLINK_WriteReg(PSP, 0x20000800)  returns 0x00 (0000ms, 1357ms total)
T0F0C 002:041 JLINK_WriteReg(CFBP, 0x00000000)  returns 0x00 (0000ms, 1357ms total)
T0F0C 002:041 JLINK_SetBPEx(Addr = 0x20000000, Type = 0xFFFFFFF2)  returns 0x00000010 (0000ms, 1357ms total)
T0F0C 002:041 JLINK_Go() -- CPU_WriteMem(4 bytes @ 0xE0002008) -- CPU_WriteMem(4 bytes @ 0xE000200C) -- CPU_WriteMem(4 bytes @ 0xE0002010) -- CPU_WriteMem(4 bytes @ 0xE0002014) -- CPU_WriteMem(4 bytes @ 0xE0002018) -- CPU_WriteMem(4 bytes @ 0xE000201C) (0019ms, 1357ms total)
T0F0C 002:060 JLINK_IsHalted() -- CPU_ReadMem(2 bytes @ 0x20000000)  returns TRUE (0014ms, 1376ms total)
T0F0C 002:074 JLINK_ReadReg(R15)  returns 0x20000000 (0000ms, 1376ms total)
T0F0C 002:074 JLINK_ClrBPEx(BPHandle = 0x00000010)  returns 0x00 (0000ms, 1376ms total)
T0F0C 002:074 JLINK_ReadReg(R0)  returns 0x00000001 (0000ms, 1376ms total)
T0F0C 002:074 JLINK_WriteReg(R0, 0x08005C00)  returns 0x00 (0000ms, 1376ms total)
T0F0C 002:074 JLINK_WriteReg(R1, 0x00000400)  returns 0x00 (0000ms, 1376ms total)
T0F0C 002:074 JLINK_WriteReg(R2, 0x000000FF)  returns 0x00 (0000ms, 1376ms total)
T0F0C 002:074 JLINK_WriteReg(R3, 0x00000000)  returns 0x00 (0000ms, 1376ms total)
T0F0C 002:074 JLINK_WriteReg(R4, 0x00000000)  returns 0x00 (0000ms, 1376ms total)
T0F0C 002:074 JLINK_WriteReg(R5, 0x00000000)  returns 0x00 (0000ms, 1376ms total)
T0F0C 002:074 JLINK_WriteReg(R6, 0x00000000)  returns 0x00 (0000ms, 1376ms total)
T0F0C 002:074 JLINK_WriteReg(R7, 0x00000000)  returns 0x00 (0000ms, 1376ms total)
T0F0C 002:074 JLINK_WriteReg(R8, 0x00000000)  returns 0x00 (0000ms, 1376ms total)
T0F0C 002:074 JLINK_WriteReg(R9, 0x20000160)  returns 0x00 (0000ms, 1376ms total)
T0F0C 002:074 JLINK_WriteReg(R10, 0x00000000)  returns 0x00 (0000ms, 1376ms total)
T0F0C 002:074 JLINK_WriteReg(R11, 0x00000000)  returns 0x00 (0000ms, 1376ms total)
T0F0C 002:074 JLINK_WriteReg(R12, 0x00000000)  returns 0x00 (0000ms, 1376ms total)
T0F0C 002:074 JLINK_WriteReg(R13, 0x20000800)  returns 0x00 (0000ms, 1376ms total)
T0F0C 002:074 JLINK_WriteReg(R14, 0x20000001)  returns 0x00 (0000ms, 1376ms total)
T0F0C 002:074 JLINK_WriteReg(R15, 0x200000B6)  returns 0x00 (0000ms, 1376ms total)
T0F0C 002:074 JLINK_WriteReg(XPSR, 0x01000000)  returns 0x00 (0000ms, 1376ms total)
T0F0C 002:074 JLINK_WriteReg(MSP, 0x20000800)  returns 0x00 (0000ms, 1376ms total)
T0F0C 002:074 JLINK_WriteReg(PSP, 0x20000800)  returns 0x00 (0000ms, 1376ms total)
T0F0C 002:074 JLINK_WriteReg(CFBP, 0x00000000)  returns 0x00 (0000ms, 1376ms total)
T0F0C 002:074 JLINK_SetBPEx(Addr = 0x20000000, Type = 0xFFFFFFF2)  returns 0x00000011 (0000ms, 1376ms total)
T0F0C 002:074 JLINK_Go() -- CPU_WriteMem(4 bytes @ 0xE0002008) -- CPU_WriteMem(4 bytes @ 0xE000200C) -- CPU_WriteMem(4 bytes @ 0xE0002010) -- CPU_WriteMem(4 bytes @ 0xE0002014) -- CPU_WriteMem(4 bytes @ 0xE0002018) -- CPU_WriteMem(4 bytes @ 0xE000201C) (0019ms, 1376ms total)
T0F0C 002:093 JLINK_IsHalted()  returns FALSE (0002ms, 1395ms total)
T0F0C 002:145 JLINK_IsHalted() -- CPU_ReadMem(2 bytes @ 0x20000000)  returns TRUE (0013ms, 1395ms total)
T0F0C 002:158 JLINK_ReadReg(R15)  returns 0x20000000 (0000ms, 1395ms total)
T0F0C 002:158 JLINK_ClrBPEx(BPHandle = 0x00000011)  returns 0x00 (0000ms, 1395ms total)
T0F0C 002:158 JLINK_ReadReg(R0)  returns 0x00000000 (0000ms, 1395ms total)
T0F0C 002:158 JLINK_WriteReg(R0, 0x08006000)  returns 0x00 (0000ms, 1395ms total)
T0F0C 002:158 JLINK_WriteReg(R1, 0x00000400)  returns 0x00 (0000ms, 1395ms total)
T0F0C 002:159 JLINK_WriteReg(R2, 0x000000FF)  returns 0x00 (0000ms, 1395ms total)
T0F0C 002:159 JLINK_WriteReg(R3, 0x00000000)  returns 0x00 (0000ms, 1395ms total)
T0F0C 002:159 JLINK_WriteReg(R4, 0x00000000)  returns 0x00 (0000ms, 1395ms total)
T0F0C 002:159 JLINK_WriteReg(R5, 0x00000000)  returns 0x00 (0000ms, 1395ms total)
T0F0C 002:159 JLINK_WriteReg(R6, 0x00000000)  returns 0x00 (0000ms, 1395ms total)
T0F0C 002:159 JLINK_WriteReg(R7, 0x00000000)  returns 0x00 (0000ms, 1395ms total)
T0F0C 002:159 JLINK_WriteReg(R8, 0x00000000)  returns 0x00 (0000ms, 1395ms total)
T0F0C 002:159 JLINK_WriteReg(R9, 0x20000160)  returns 0x00 (0000ms, 1395ms total)
T0F0C 002:159 JLINK_WriteReg(R10, 0x00000000)  returns 0x00 (0000ms, 1395ms total)
T0F0C 002:159 JLINK_WriteReg(R11, 0x00000000)  returns 0x00 (0000ms, 1395ms total)
T0F0C 002:159 JLINK_WriteReg(R12, 0x00000000)  returns 0x00 (0000ms, 1395ms total)
T0F0C 002:159 JLINK_WriteReg(R13, 0x20000800)  returns 0x00 (0000ms, 1395ms total)
T0F0C 002:159 JLINK_WriteReg(R14, 0x20000001)  returns 0x00 (0000ms, 1395ms total)
T0F0C 002:159 JLINK_WriteReg(R15, 0x20000020)  returns 0x00 (0000ms, 1395ms total)
T0F0C 002:159 JLINK_WriteReg(XPSR, 0x01000000)  returns 0x00 (0000ms, 1395ms total)
T0F0C 002:159 JLINK_WriteReg(MSP, 0x20000800)  returns 0x00 (0000ms, 1395ms total)
T0F0C 002:159 JLINK_WriteReg(PSP, 0x20000800)  returns 0x00 (0000ms, 1395ms total)
T0F0C 002:159 JLINK_WriteReg(CFBP, 0x00000000)  returns 0x00 (0000ms, 1395ms total)
T0F0C 002:159 JLINK_SetBPEx(Addr = 0x20000000, Type = 0xFFFFFFF2)  returns 0x00000012 (0000ms, 1395ms total)
T0F0C 002:159 JLINK_Go() -- CPU_WriteMem(4 bytes @ 0xE0002008) -- CPU_WriteMem(4 bytes @ 0xE000200C) -- CPU_WriteMem(4 bytes @ 0xE0002010) -- CPU_WriteMem(4 bytes @ 0xE0002014) -- CPU_WriteMem(4 bytes @ 0xE0002018) -- CPU_WriteMem(4 bytes @ 0xE000201C) (0018ms, 1395ms total)
T0F0C 002:177 JLINK_IsHalted() -- CPU_ReadMem(2 bytes @ 0x20000000)  returns TRUE (0010ms, 1413ms total)
T0F0C 002:187 JLINK_ReadReg(R15)  returns 0x20000000 (0000ms, 1413ms total)
T0F0C 002:187 JLINK_ClrBPEx(BPHandle = 0x00000012)  returns 0x00 (0000ms, 1413ms total)
T0F0C 002:187 JLINK_ReadReg(R0)  returns 0x00000001 (0000ms, 1413ms total)
T0F0C 002:187 JLINK_WriteReg(R0, 0x08006000)  returns 0x00 (0000ms, 1413ms total)
T0F0C 002:187 JLINK_WriteReg(R1, 0x00000400)  returns 0x00 (0000ms, 1413ms total)
T0F0C 002:187 JLINK_WriteReg(R2, 0x000000FF)  returns 0x00 (0000ms, 1413ms total)
T0F0C 002:187 JLINK_WriteReg(R3, 0x00000000)  returns 0x00 (0000ms, 1413ms total)
T0F0C 002:187 JLINK_WriteReg(R4, 0x00000000)  returns 0x00 (0000ms, 1413ms total)
T0F0C 002:187 JLINK_WriteReg(R5, 0x00000000)  returns 0x00 (0000ms, 1413ms total)
T0F0C 002:187 JLINK_WriteReg(R6, 0x00000000)  returns 0x00 (0000ms, 1413ms total)
T0F0C 002:187 JLINK_WriteReg(R7, 0x00000000)  returns 0x00 (0000ms, 1413ms total)
T0F0C 002:187 JLINK_WriteReg(R8, 0x00000000)  returns 0x00 (0000ms, 1413ms total)
T0F0C 002:187 JLINK_WriteReg(R9, 0x20000160)  returns 0x00 (0000ms, 1413ms total)
